freq/Hz	Re(Z)/Ohm	-Im(Z)/Ohm	|Z|/Ohm	Phase(Z)/deg	time/s	<Ewe>/V	<I>/mA	
1.9999814E+005	7.6525217E-001	-4.1824330E-002	7.6639426E-001	3.1283488E+000	4.440751229652803E+004	9.4362011E-004	2.2224033E-001
1.3528058E+005	8.0030054E-001	2.3103094E-002	8.0063397E-001	-1.6535566E+000	4.440861728562368E+004	9.4503624E-004	2.2033951E-001
9.1504602E+004	8.3984256E-001	6.5867901E-002	8.4242159E-001	-4.4844632E+000	4.440960030583316E+004	9.4622880E-004	2.1769327E-001
6.1896898E+004	8.8073260E-001	9.4590105E-002	8.8579750E-001	-6.1300321E+000	4.441070527383545E+004	9.6005481E-004	2.1888594E-001
4.1864609E+004	9.2175198E-001	1.0923468E-001	9.2820197E-001	-6.7584682E+000	4.441168828484468E+004	9.5263869E-004	2.1471159E-001
2.8317996E+004	9.6305299E-001	1.1373714E-001	9.6974593E-001	-6.7354674E+000	4.441267130428081E+004	9.4820390E-004	2.1773052E-001
1.9150830E+004	9.9856400E-001	1.1062982E-001	1.0046736E+000	-6.3219557E+000	4.441365328662348E+004	9.5248962E-004	2.1750689E-001
1.2952790E+004	1.0278294E+000	1.0400004E-001	1.0330776E+000	-5.7777600E+000	4.441451427730685E+004	9.4227848E-004	2.1333253E-001
8.7681855E+003	1.0554796E+000	9.6693784E-002	1.0598996E+000	-5.2343259E+000	4.441549628026295E+004	1.0977327E-004	2.0945635E-001
5.9289634E+003	1.0762676E+000	9.0028509E-002	1.0800264E+000	-4.7815924E+000	4.441635729257285E+004	9.7586999E-005	2.1046269E-001
4.0114001E+003	1.0958612E+000	8.4318131E-002	1.0991002E+000	-4.3998032E+000	4.441736289465020E+004	1.0369877E-004	2.1072356E-001
2.7130396E+003	1.1140367E+000	8.0566928E-002	1.1169462E+000	-4.1364188E+000	4.441880744221609E+004	1.0932607E-004	2.1527062E-001
1.8344149E+003	1.1317183E+000	7.9663865E-002	1.1345186E+000	-4.0265203E+000	4.442032365925243E+004	1.1174842E-004	2.0927000E-001
1.2411923E+003	1.1479795E+000	7.9105772E-002	1.1507018E+000	-3.9419463E+000	4.442183946663531E+004	1.1227016E-004	2.0792824E-001
8.3919617E+002	1.1646866E+000	8.2550712E-002	1.1676084E+000	-4.0542336E+000	4.442335576297814E+004	1.1104035E-004	2.1318343E-001
5.6763885E+002	1.1819346E+000	8.6870179E-002	1.1851227E+000	-4.2035837E+000	4.442487849809480E+004	1.1208382E-004	2.0755552E-001
3.8413928E+002	1.1995758E+000	9.5279343E-002	1.2033538E+000	-4.5413284E+000	4.442639902662451E+004	1.1920180E-004	2.0274755E-001
2.5975034E+002	1.2206922E+000	1.0733075E-001	1.2254016E+000	-5.0248747E+000	4.442791480539419E+004	1.2251856E-004	2.0684735E-001
1.7573088E+002	1.2430415E+000	1.2110336E-001	1.2489269E+000	-5.5644822E+000	4.442942381480336E+004	1.1472977E-004	2.0725733E-001
1.1882111E+002	1.2688669E+000	1.4430794E-001	1.2770466E+000	-6.4883575E+000	4.443095360600034E+004	1.1435711E-004	2.1426427E-001
8.0385803E+001	1.2986552E+000	1.6969296E-001	1.3096950E+000	-7.4445586E+000	4.443246267418284E+004	1.0861801E-004	2.1314614E-001
5.4390804E+001	1.3336176E+000	2.0132221E-001	1.3487277E+000	-8.5845222E+000	4.443399390327325E+004	1.1882913E-004	2.1083532E-001
3.6777035E+001	1.3766295E+000	2.4626854E-001	1.3984838E+000	-1.0142493E+001	4.443543793345243E+004	1.1487884E-004	2.1213980E-001
2.4880543E+001	1.4297740E+000	2.9547527E-001	1.4599861E+000	-1.1676301E+001	4.443696055944910E+004	1.1983533E-004	2.1784227E-001
1.6825199E+001	1.4986948E+000	3.5883924E-001	1.5410553E+000	-1.3465094E+001	4.443854085547524E+004	1.0951241E-004	6.8676779E-003
1.1380166E+001	1.5724845E+000	4.3169570E-001	1.6306651E+000	-1.5351265E+001	4.443988329564937E+004	1.2937566E-004	8.0347452E-003
7.6970458E+000	1.6619744E+000	5.2174532E-001	1.7419463E+000	-1.7428692E+001	4.444183059604070E+004	1.1342543E-004	7.5388211E-003
5.2083359E+000	1.7579399E+000	6.2904567E-001	1.8670970E+000	-1.9688791E+001	4.444328765094071E+004	1.0783540E-004	-2.5041151E-004
3.5223141E+000	1.8588170E+000	7.6458907E-001	2.0099247E+000	-2.2358885E+001	4.444540757675399E+004	1.0748136E-004	1.1528512E-002
2.3825839E+000	1.9465700E+000	9.5453644E-001	2.1680117E+000	-2.6121872E+001	4.444850063144282E+004	1.1735103E-004	5.7416572E-003
1.6124845E+000	2.0186303E+000	1.2465047E+000	2.3724759E+000	-3.1695343E+001	4.445303942927107E+004	1.2289881E-004	8.4740305E-003
1.0899156E+000	2.0857410E+000	1.6912092E+000	2.6852381E+000	-3.9036636E+001	4.446068207533541E+004	1.1745957E-004	-1.1320994E-002
7.3730946E-001	2.1559713E+000	2.3725178E+000	3.2057843E+000	-4.7737724E+001	4.447052502935031E+004	1.0431382E-004	-1.2698416E-002
4.9888268E-001	2.2419622E+000	3.3707442E+000	4.0482478E+000	-5.6371178E+001	4.448504414533393E+004	1.1511707E-004	-1.3962368E-002
3.3724010E-001	2.3421009E+000	4.8617024E+000	5.3964419E+000	-6.4277794E+001	4.450649379497266E+004	1.0805913E-004	-9.8264916E-003
2.2816882E-001	2.5192566E+000	7.0389781E+000	7.4762201E+000	-7.0307663E+001	4.453817180325912E+004	1.1217247E-004	-1.0389913E-002
1.5427545E-001	2.7492735E+000	1.0212533E+001	1.0576121E+001	-7.4932846E+001	4.458499744193407E+004	1.0051076E-004	-9.9459989E-003
1.0444522E-001	3.1292698E+000	1.4825242E+001	1.5151902E+001	-7.8081123E+001	4.465413799018459E+004	1.1640778E-004	-8.9100199E-003
7.0660561E-002	3.7012022E+000	2.1513519E+001	2.1829576E+001	-8.0238350E+001	4.477053590734507E+004	9.9835954E-005	-9.8811015E-003
4.7770590E-002	4.6341801E+000	3.1165995E+001	3.1508648E+001	-8.1542458E+001	4.492164176422439E+004	1.0705445E-004	-8.7105054E-003
3.2329261E-002	5.8698325E+000	4.5177780E+001	4.5557510E+001	-8.2597176E+001	4.514489486505202E+004	1.1253662E-004	-8.1125079E-003
2.1857321E-002	7.9649630E+000	6.5365524E+001	6.5849014E+001	-8.3052605E+001	4.547508499624446E+004	1.1974389E-004	-7.1836780E-003
1.4780685E-002	1.0667705E+001	9.4556915E+001	9.5156769E+001	-8.3563232E+001	4.596333624381264E+004	1.0908215E-004	-6.1884429E-003
9.9972636E-003	1.4321710E+001	1.3643427E+002	1.3718390E+002	-8.4007523E+001	4.668517558568832E+004	1.0640892E-004	-5.3932508E-003